
T1648 000:290 SEGGER J-Link V5.02f Log File (0000ms, 0273ms total)
T1648 000:290 DLL Compiled: Oct  2 2015 20:51:34 (0000ms, 0273ms total)
T1648 000:290 Logging started @ 2016-11-26 00:20 (0000ms, 0273ms total)
T1648 000:290 JLINK_SetWarnOutHandler(...) (0000ms, 0273ms total)
T1648 000:290 JLINK_OpenEx(...)
Firmware: J-Link ARM-OB STM32 compiled Aug 22 2012 19:52:04
Hardware: V7.00
S/N: 20090928
Feature(s): RDI,FlashDL,FlashBP,JFlash,GDBFull  returns O.K. (0271ms, 0544ms total)
T1648 000:561 JLINK_SetErrorOutHandler(...) (0000ms, 0544ms total)
T1648 000:561 JLINK_ExecCommand("ProjectFile = "D:\项目-比赛\创新团队\2016 WiFi门禁\WiFi_access_control_system\bsp\stm32f10x\JLinkSettings.ini"", ...)  returns 0x00 (0001ms, 0545ms total)
T1648 000:574 JLINK_ExecCommand("Device = STM32F103ZE", ...)Device "STM32F103ZE" selected.  returns 0x00 (0008ms, 0553ms total)
T1648 000:582 JLINK_ExecCommand("DisableConnectionTimeout", ...)  returns 0x01 (0000ms, 0553ms total)
T1648 000:582 JLINK_GetHardwareVersion()  returns 0x11170 (0000ms, 0553ms total)
T1648 000:582 JLINK_GetDLLVersion()  returns 50206 (0000ms, 0553ms total)
T1648 000:582 JLINK_GetFirmwareString(...) (0000ms, 0553ms total)
T1648 000:605 JLINK_GetDLLVersion()  returns 50206 (0000ms, 0553ms total)
T1648 000:605 JLINK_GetCompileDateTime() (0000ms, 0553ms total)
T1648 000:612 JLINK_GetFirmwareString(...) (0000ms, 0553ms total)
T1648 000:616 JLINK_GetHardwareVersion()  returns 0x11170 (0000ms, 0553ms total)
T1648 000:627 JLINK_TIF_Select(JLINKARM_TIF_SWD)  returns 0x00 (0003ms, 0556ms total)
T1648 000:630 JLINK_SetSpeed(50000) (0001ms, 0557ms total)
T1648 000:631 JLINK_GetId() >0x108 TIF>Found SWD-DP with ID 0x1BA01477 >0x0D TIF> >0x28 TIF> >0x0D TIF> >0x28 TIF> >0x0D TIF> >0x21 TIF> >0x0D TIF> >0x28 TIF> >0x0D TIF> >0x28 TIF> >0x0D TIF> >0x28 TIF> >0x0D TIF> >0x21 TIF> >0x0D TIF> >0x21 TIF> >0x0D TIF> >0x28 TIF> >0x0D TIF> >0x21 TIF> >0x0D TIF> >0x21 TIF> >0x0D TIF> >0x28 TIF> >0x0D TIF> >0x28 TIF> >0x0D TIF> >0x28 TIF> >0x0D TIF> >0x21 TIF> >0x0D TIF> >0x21 TIF> >0x0D TIF> >0x28 TIF> >0x0D TIF> >0x21 TIF> >0x0D TIF> >0x21 TIF> >0x108 TIF>
Found SWD-DP with ID 0x1BA01477 >0x0D TIF> >0x21 TIF> >0x0D TIF> >0x28 TIF> >0x0D TIF> >0x28 TIF> >0x0D TIF> >0x21 TIF> >0x0D TIF> >0x28 TIF> >0x0D TIF> >0x21 TIF> >0x0D TIF> >0x21 TIF> >0x0D TIF> >0x21 TIF> >0x0D TIF> >0x21 TIF> >0x0D TIF> >0x28 TIF> >0x0D TIF> >0x28 TIF> >0x0D TIF> >0x21 TIF> >0x0D TIF> >0x28 TIF> >0x0D TIF> >0x28 TIF> >0x0D TIF> >0x28 TIF> >0x0D TIF> >0x21 TIF> >0x0D TIF> >0x21 TIF> >0x0D TIF> >0x28 TIF> >0x0D TIF> >0x21 TIF> >0x0D TIF> >0x21 TIF>Found Cortex-M3 r1p1, Little endian.
 -- CPU_ReadMem(4 bytes @ 0xE000EDF0) -- CPU_WriteMem(4 bytes @ 0xE000EDF0) -- CPU_ReadMem(4 bytes @ 0xE0002000)FPUnit: 6 code (BP) slots and 2 literal slots -- CPU_ReadMem(4 bytes @ 0xE000EDFC) -- CPU_WriteMem(4 bytes @ 0xE000EDFC) -- CPU_ReadMem(4 bytes @ 0xE0001000) -- CPU_WriteMem(4 bytes @ 0xE0001000) -- CPU_ReadMem(4 bytes @ 0xE000ED88) -- CPU_WriteMem(4 bytes @ 0xE000ED88) -- CPU_ReadMem(4 bytes @ 0xE000ED88) -- CPU_WriteMem(4 bytes @ 0xE000ED88)CoreSight components:ROMTbl 0 @ E00FF000
 -- CPU_ReadMem(16 bytes @ 0xE00FF000) -- CPU_ReadMem(16 bytes @ 0xE000EFF0) -- CPU_ReadMem(16 bytes @ 0xE000EFE0)ROMTbl 0 [0]: FFF0F000, CID: B105E00D, PID: 001BB000 SCS -- CPU_ReadMem(16 bytes @ 0xE0001FF0) -- CPU_ReadMem(16 bytes @ 0xE0001FE0)ROMTbl 0 [1]: FFF02000, CID: B105E00D, PID: 001BB002 DWT -- CPU_ReadMem(16 bytes @ 0xE0002FF0) -- CPU_ReadMem(16 bytes @ 0xE0002FE0)ROMTbl 0 [2]: FFF03000, CID: B105E00D, PID: 000BB003 FPB -- CPU_ReadMem(16 bytes @ 0xE0000FF0)
 -- CPU_ReadMem(16 bytes @ 0xE0000FE0)ROMTbl 0 [3]: FFF01000, CID: B105E00D, PID: 001BB001 ITM -- CPU_ReadMem(16 bytes @ 0xE00FF010) -- CPU_ReadMem(16 bytes @ 0xE0040FF0) -- CPU_ReadMem(16 bytes @ 0xE0040FE0)ROMTbl 0 [4]: FFF41000, CID: B105900D, PID: 001BB923 TPIU-Lite -- CPU_ReadMem(16 bytes @ 0xE0041FF0) -- CPU_ReadMem(16 bytes @ 0xE0041FE0)ROMTbl 0 [5]: FFF42000, CID: B105900D, PID: 101BB924 ETM-M3 >0x0D TIF> >0x21 TIF>  returns 0x1BA01477 (0162ms, 0719ms total)
T1648 000:793 JLINK_GetDLLVersion()  returns 50206 (0000ms, 0719ms total)
T1648 000:793 JLINK_CORE_GetFound()  returns 0x30000FF (0000ms, 0719ms total)
T1648 000:793 JLINK_GetDebugInfo(0x100) -- Value=0xE00FF003  returns 0x00 (0000ms, 0719ms total)
T1648 000:797 JLINK_GetDebugInfo(0x100) -- Value=0xE00FF003  returns 0x00 (0000ms, 0719ms total)
T1648 000:797 JLINK_GetDebugInfo(0x101) -- Value=0xE0041000  returns 0x00 (0000ms, 0719ms total)
T1648 000:797 JLINK_GetDebugInfo(0x102) -- Value=0x00000000  returns 0x00 (0000ms, 0719ms total)
T1648 000:797 JLINK_GetDebugInfo(0x103) -- Value=0xE0040000  returns 0x00 (0000ms, 0719ms total)
T1648 000:797 JLINK_GetDebugInfo(0x104) -- Value=0xE0000000  returns 0x00 (0000ms, 0719ms total)
T1648 000:797 JLINK_GetDebugInfo(0x105) -- Value=0xE0001000  returns 0x00 (0000ms, 0719ms total)
T1648 000:797 JLINK_GetDebugInfo(0x106) -- Value=0xE0002000  returns 0x00 (0000ms, 0719ms total)
T1648 000:797 JLINK_GetDebugInfo(0x107) -- Value=0xE000E000  returns 0x00 (0000ms, 0719ms total)
T1648 000:797 JLINK_GetDebugInfo(0x10C) -- Value=0xE000EDF0  returns 0x00 (0000ms, 0719ms total)
T1648 000:797 JLINK_ReadMemU32(0xE000ED00, 0x0001 Items, ...) -- CPU is running -- CPU_ReadMem(4 bytes @ 0xE000ED00) - Data: 31 C2 1F 41  returns 0x01 (0002ms, 0721ms total)
T1648 000:799 JLINK_SetResetType(JLINKARM_RESET_TYPE_NORMAL)  returns JLINKARM_RESET_TYPE_NORMAL (0000ms, 0721ms total)
T1648 000:799 JLINK_Reset() -- CPU is running -- CPU_WriteMem(4 bytes @ 0xE000EDF0) -- CPU is running -- CPU_WriteMem(4 bytes @ 0xE000EDFC) >0x35 TIF> -- CPU is running -- CPU_WriteMem(4 bytes @ 0xE000ED0C) -- CPU is running -- CPU_ReadMem(4 bytes @ 0xE000EDF0) -- CPU is running -- CPU_ReadMem(4 bytes @ 0xE000EDF0) -- CPU is running -- CPU_ReadMem(4 bytes @ 0xE000EDF0) -- CPU is running -- CPU_ReadMem(4 bytes @ 0xE000EDF0) -- CPU is running -- CPU_ReadMem(4 bytes @ 0xE000EDF0) -- CPU is running
 -- CPU_ReadMem(4 bytes @ 0xE000EDF0) -- CPU is running -- CPU_ReadMem(4 bytes @ 0xE000EDF0) -- CPU is running -- CPU_ReadMem(4 bytes @ 0xE000EDF0) -- CPU is running -- CPU_WriteMem(4 bytes @ 0xE000EDF0) -- CPU is running -- CPU_WriteMem(4 bytes @ 0xE000EDFC) -- CPU is running -- CPU_ReadMem(4 bytes @ 0xE000EDF0) -- CPU_WriteMem(4 bytes @ 0xE0002000) -- CPU_ReadMem(4 bytes @ 0xE000EDFC) -- CPU_ReadMem(4 bytes @ 0xE0001000) (0030ms, 0751ms total)
T1648 000:829 JLINK_Halt()  returns 0x00 (0000ms, 0751ms total)
T1648 000:829 JLINK_IsHalted()  returns TRUE (0000ms, 0751ms total)
T1648 000:829 JLINK_ReadMemU32(0xE000EDF0, 0x0001 Items, ...) -- CPU_ReadMem(4 bytes @ 0xE000EDF0) - Data: 03 00 03 00  returns 0x01 (0001ms, 0752ms total)
T1648 000:830 JLINK_WriteU32(0xE000EDF0, 0xA05F0003) -- CPU_WriteMem(4 bytes @ 0xE000EDF0)  returns 0x00 (0001ms, 0753ms total)
T1648 000:831 JLINK_WriteU32(0xE000EDFC, 0x01000000) -- CPU_WriteMem(4 bytes @ 0xE000EDFC)  returns 0x00 (0001ms, 0754ms total)
T1648 000:845 JLINK_GetHWStatus(...)  returns 0x00 (0001ms, 0755ms total)
T1648 000:852 JLINK_GetNumBPUnits(Type = 0xFFFFFF00)  returns 0x06 (0000ms, 0755ms total)
T1648 000:852 JLINK_GetNumBPUnits(Type = 0xF0)  returns 0x2000 (0000ms, 0755ms total)
T1648 000:852 JLINK_GetNumWPUnits()  returns 0x04 (0000ms, 0755ms total)
T1648 000:858 JLINK_GetSpeed()  returns 0xFA0 (0000ms, 0755ms total)
T1648 000:865 JLINK_ReadMemU32(0xE000E004, 0x0001 Items, ...) -- CPU_ReadMem(4 bytes @ 0xE000E004) - Data: 01 00 00 00  returns 0x01 (0001ms, 0756ms total)
T1648 000:866 JLINK_ReadMemU32(0xE000E004, 0x0001 Items, ...) -- CPU_ReadMem(4 bytes @ 0xE000E004) - Data: 01 00 00 00  returns 0x01 (0001ms, 0757ms total)
T1648 000:867 JLINK_WriteMem(0xE0001000, 0x001C Bytes, ...) - Data: 01 00 00 00 00 00 00 00 00 00 00 00 00 00 00 00 ... -- CPU_WriteMem(28 bytes @ 0xE0001000)  returns 0x1C (0002ms, 0759ms total)
T1648 000:869 JLINK_ReadMem (0xE0001000, 0x001C Bytes, ...) -- CPU_ReadMem(28 bytes @ 0xE0001000) - Data: 01 00 00 40 00 00 00 00 00 00 00 00 00 00 00 00 ...  returns 0x00 (0001ms, 0760ms total)
T1648 000:870 JLINK_Halt()  returns 0x00 (0000ms, 0760ms total)
T1648 000:870 JLINK_IsHalted()  returns TRUE (0000ms, 0760ms total)
T1648 000:873 JLINK_WriteMem(0x20000000, 0x0164 Bytes, ...) - Data: 00 BE 0A E0 0D 78 2D 06 68 40 08 24 40 00 00 D3 ... -- CPU_WriteMem(356 bytes @ 0x20000000)  returns 0x164 (0005ms, 0765ms total)
T1648 000:878 JLINK_WriteReg(R0, 0x08000000)  returns 0x00 (0000ms, 0765ms total)
T1648 000:878 JLINK_WriteReg(R1, 0x007A1200)  returns 0x00 (0000ms, 0765ms total)
T1648 000:878 JLINK_WriteReg(R2, 0x00000001)  returns 0x00 (0000ms, 0765ms total)
T1648 000:878 JLINK_WriteReg(R3, 0x00000000)  returns 0x00 (0000ms, 0765ms total)
T1648 000:878 JLINK_WriteReg(R4, 0x00000000)  returns 0x00 (0000ms, 0765ms total)
T1648 000:878 JLINK_WriteReg(R5, 0x00000000)  returns 0x00 (0000ms, 0765ms total)
T1648 000:878 JLINK_WriteReg(R6, 0x00000000)  returns 0x00 (0000ms, 0765ms total)
T1648 000:878 JLINK_WriteReg(R7, 0x00000000)  returns 0x00 (0000ms, 0765ms total)
T1648 000:878 JLINK_WriteReg(R8, 0x00000000)  returns 0x00 (0000ms, 0765ms total)
T1648 000:878 JLINK_WriteReg(R9, 0x20000160)  returns 0x00 (0000ms, 0765ms total)
T1648 000:878 JLINK_WriteReg(R10, 0x00000000)  returns 0x00 (0000ms, 0765ms total)
T1648 000:878 JLINK_WriteReg(R11, 0x00000000)  returns 0x00 (0001ms, 0766ms total)
T1648 000:879 JLINK_WriteReg(R12, 0x00000000)  returns 0x00 (0000ms, 0766ms total)
T1648 000:879 JLINK_WriteReg(R13 (SP), 0x20001000)  returns 0x00 (0000ms, 0766ms total)
T1648 000:879 JLINK_WriteReg(R14, 0x20000001)  returns 0x00 (0000ms, 0766ms total)
T1648 000:879 JLINK_WriteReg(R15 (PC), 0x20000038)  returns 0x00 (0000ms, 0766ms total)
T1648 000:879 JLINK_WriteReg(XPSR, 0x01000000)  returns 0x00 (0000ms, 0766ms total)
T1648 000:879 JLINK_WriteReg(MSP, 0x20001000)  returns 0x00 (0000ms, 0766ms total)
T1648 000:879 JLINK_WriteReg(PSP, 0x20001000)  returns 0x00 (0000ms, 0766ms total)
T1648 000:879 JLINK_WriteReg(CFBP, 0x00000000)  returns 0x00 (0000ms, 0766ms total)
T1648 000:879 JLINK_SetBPEx(Addr = 0x20000000, Type = 0xFFFFFFF2) -- CPU_ReadMem(2 bytes @ 0x20000000)  returns 0x00000001 (0001ms, 0767ms total)
T1648 000:880 JLINK_Go() -- CPU_WriteMem(2 bytes @ 0x20000000) -- CPU_ReadMem(4 bytes @ 0xE0001000) -- CPU_WriteMem(4 bytes @ 0xE0002008) -- CPU_WriteMem(4 bytes @ 0xE000200C) -- CPU_WriteMem(4 bytes @ 0xE0002010) -- CPU_WriteMem(4 bytes @ 0xE0002014) -- CPU_WriteMem(4 bytes @ 0xE0002018) -- CPU_WriteMem(4 bytes @ 0xE000201C) -- CPU_WriteMem(4 bytes @ 0xE0001004) (0012ms, 0779ms total)
T1648 000:892 JLINK_IsHalted() -- CPU_ReadMem(2 bytes @ 0x20000000)  returns TRUE (0005ms, 0784ms total)
T1648 000:897 JLINK_ReadReg(R15 (PC))  returns 0x20000000 (0000ms, 0779ms total)
T1648 000:897 JLINK_ClrBPEx(BPHandle = 0x00000001)  returns 0x00 (0000ms, 0779ms total)
T1648 000:897 JLINK_ReadReg(R0)  returns 0x00000000 (0000ms, 0779ms total)
T1648 000:898 JLINK_WriteReg(R0, 0x08000000)  returns 0x00 (0000ms, 0779ms total)
T1648 000:898 JLINK_WriteReg(R1, 0x007A1200)  returns 0x00 (0000ms, 0779ms total)
T1648 000:898 JLINK_WriteReg(R2, 0x00000001)  returns 0x00 (0000ms, 0779ms total)
T1648 000:898 JLINK_WriteReg(R3, 0x00000000)  returns 0x00 (0000ms, 0779ms total)
T1648 000:898 JLINK_WriteReg(R4, 0x00000000)  returns 0x00 (0000ms, 0779ms total)
T1648 000:898 JLINK_WriteReg(R5, 0x00000000)  returns 0x00 (0000ms, 0779ms total)
T1648 000:898 JLINK_WriteReg(R6, 0x00000000)  returns 0x00 (0000ms, 0779ms total)
T1648 000:898 JLINK_WriteReg(R7, 0x00000000)  returns 0x00 (0000ms, 0779ms total)
T1648 000:898 JLINK_WriteReg(R8, 0x00000000)  returns 0x00 (0000ms, 0779ms total)
T1648 000:898 JLINK_WriteReg(R9, 0x20000160)  returns 0x00 (0000ms, 0779ms total)
T1648 000:898 JLINK_WriteReg(R10, 0x00000000)  returns 0x00 (0000ms, 0779ms total)
T1648 000:898 JLINK_WriteReg(R11, 0x00000000)  returns 0x00 (0000ms, 0779ms total)
T1648 000:898 JLINK_WriteReg(R12, 0x00000000)  returns 0x00 (0000ms, 0779ms total)
T1648 000:898 JLINK_WriteReg(R13 (SP), 0x20001000)  returns 0x00 (0000ms, 0779ms total)
T1648 000:898 JLINK_WriteReg(R14, 0x20000001)  returns 0x00 (0000ms, 0779ms total)
T1648 000:898 JLINK_WriteReg(R15 (PC), 0x2000007C)  returns 0x00 (0000ms, 0779ms total)
T1648 000:898 JLINK_WriteReg(XPSR, 0x01000000)  returns 0x00 (0000ms, 0779ms total)
T1648 000:898 JLINK_WriteReg(MSP, 0x20001000)  returns 0x00 (0000ms, 0779ms total)
T1648 000:898 JLINK_WriteReg(PSP, 0x20001000)  returns 0x00 (0000ms, 0779ms total)
T1648 000:898 JLINK_WriteReg(CFBP, 0x00000000)  returns 0x00 (0000ms, 0779ms total)
T1648 000:898 JLINK_SetBPEx(Addr = 0x20000000, Type = 0xFFFFFFF2)  returns 0x00000002 (0000ms, 0779ms total)
T1648 000:898 JLINK_Go() -- CPU_ReadMem(4 bytes @ 0xE0001000) (0004ms, 0783ms total)
T1648 000:902 JLINK_IsHalted()  returns FALSE (0001ms, 0784ms total)
T1648 000:960 JLINK_IsHalted() -- CPU_ReadMem(2 bytes @ 0x20000000)  returns TRUE (0005ms, 0788ms total)
T1648 000:965 JLINK_ReadReg(R15 (PC))  returns 0x20000000 (0000ms, 0783ms total)
T1648 000:965 JLINK_ClrBPEx(BPHandle = 0x00000002)  returns 0x00 (0000ms, 0783ms total)
T1648 000:965 JLINK_ReadReg(R0)  returns 0x00000000 (0000ms, 0783ms total)
T1648 001:017 JLINK_WriteReg(R0, 0x00000001)  returns 0x00 (0001ms, 0784ms total)
T1648 001:018 JLINK_WriteReg(R1, 0x007A1200)  returns 0x00 (0000ms, 0784ms total)
T1648 001:018 JLINK_WriteReg(R2, 0x00000001)  returns 0x00 (0000ms, 0784ms total)
T1648 001:018 JLINK_WriteReg(R3, 0x00000000)  returns 0x00 (0000ms, 0784ms total)
T1648 001:018 JLINK_WriteReg(R4, 0x00000000)  returns 0x00 (0000ms, 0784ms total)
T1648 001:018 JLINK_WriteReg(R5, 0x00000000)  returns 0x00 (0000ms, 0784ms total)
T1648 001:018 JLINK_WriteReg(R6, 0x00000000)  returns 0x00 (0000ms, 0784ms total)
T1648 001:018 JLINK_WriteReg(R7, 0x00000000)  returns 0x00 (0001ms, 0785ms total)
T1648 001:019 JLINK_WriteReg(R8, 0x00000000)  returns 0x00 (0000ms, 0785ms total)
T1648 001:019 JLINK_WriteReg(R9, 0x20000160)  returns 0x00 (0000ms, 0785ms total)
T1648 001:019 JLINK_WriteReg(R10, 0x00000000)  returns 0x00 (0000ms, 0785ms total)
T1648 001:019 JLINK_WriteReg(R11, 0x00000000)  returns 0x00 (0000ms, 0785ms total)
T1648 001:019 JLINK_WriteReg(R12, 0x00000000)  returns 0x00 (0000ms, 0785ms total)
T1648 001:019 JLINK_WriteReg(R13 (SP), 0x20001000)  returns 0x00 (0000ms, 0785ms total)
T1648 001:019 JLINK_WriteReg(R14, 0x20000001)  returns 0x00 (0000ms, 0785ms total)
T1648 001:019 JLINK_WriteReg(R15 (PC), 0x2000006A)  returns 0x00 (0000ms, 0785ms total)
T1648 001:019 JLINK_WriteReg(XPSR, 0x01000000)  returns 0x00 (0001ms, 0786ms total)
T1648 001:020 JLINK_WriteReg(MSP, 0x20001000)  returns 0x00 (0000ms, 0786ms total)
T1648 001:020 JLINK_WriteReg(PSP, 0x20001000)  returns 0x00 (0000ms, 0786ms total)
T1648 001:020 JLINK_WriteReg(CFBP, 0x00000000)  returns 0x00 (0000ms, 0786ms total)
T1648 001:020 JLINK_SetBPEx(Addr = 0x20000000, Type = 0xFFFFFFF2)  returns 0x00000003 (0000ms, 0786ms total)
T1648 001:020 JLINK_Go() -- CPU_ReadMem(4 bytes @ 0xE0001000) (0003ms, 0789ms total)
T1648 001:023 JLINK_IsHalted() -- CPU_ReadMem(2 bytes @ 0x20000000)  returns TRUE (0005ms, 0794ms total)
T1648 001:028 JLINK_ReadReg(R15 (PC))  returns 0x20000000 (0000ms, 0789ms total)
T1648 001:028 JLINK_ClrBPEx(BPHandle = 0x00000003)  returns 0x00 (0000ms, 0789ms total)
T1648 001:028 JLINK_ReadReg(R0)  returns 0x00000000 (0000ms, 0789ms total)
T1648 001:038 JLINK_WriteMem(0x20000000, 0x0164 Bytes, ...) - Data: 00 BE 0A E0 0D 78 2D 06 68 40 08 24 40 00 00 D3 ... -- CPU_WriteMem(356 bytes @ 0x20000000)  returns 0x164 (0005ms, 0794ms total)
T1648 001:043 JLINK_WriteReg(R0, 0x08000000)  returns 0x00 (0000ms, 0794ms total)
T1648 001:044 JLINK_WriteReg(R1, 0x007A1200)  returns 0x00 (0000ms, 0795ms total)
T1648 001:044 JLINK_WriteReg(R2, 0x00000002)  returns 0x00 (0000ms, 0795ms total)
T1648 001:044 JLINK_WriteReg(R3, 0x00000000)  returns 0x00 (0000ms, 0795ms total)
T1648 001:044 JLINK_WriteReg(R4, 0x00000000)  returns 0x00 (0000ms, 0795ms total)
T1648 001:044 JLINK_WriteReg(R5, 0x00000000)  returns 0x00 (0000ms, 0795ms total)
T1648 001:044 JLINK_WriteReg(R6, 0x00000000)  returns 0x00 (0000ms, 0795ms total)
T1648 001:044 JLINK_WriteReg(R7, 0x00000000)  returns 0x00 (0000ms, 0795ms total)
T1648 001:044 JLINK_WriteReg(R8, 0x00000000)  returns 0x00 (0000ms, 0795ms total)
T1648 001:044 JLINK_WriteReg(R9, 0x20000160)  returns 0x00 (0000ms, 0795ms total)
T1648 001:044 JLINK_WriteReg(R10, 0x00000000)  returns 0x00 (0000ms, 0795ms total)
T1648 001:044 JLINK_WriteReg(R11, 0x00000000)  returns 0x00 (0000ms, 0795ms total)
T1648 001:044 JLINK_WriteReg(R12, 0x00000000)  returns 0x00 (0000ms, 0795ms total)
T1648 001:044 JLINK_WriteReg(R13 (SP), 0x20001000)  returns 0x00 (0000ms, 0795ms total)
T1648 001:044 JLINK_WriteReg(R14, 0x20000001)  returns 0x00 (0000ms, 0795ms total)
T1648 001:044 JLINK_WriteReg(R15 (PC), 0x20000038)  returns 0x00 (0000ms, 0795ms total)
T1648 001:044 JLINK_WriteReg(XPSR, 0x01000000)  returns 0x00 (0000ms, 0795ms total)
T1648 001:044 JLINK_WriteReg(MSP, 0x20001000)  returns 0x00 (0000ms, 0795ms total)
T1648 001:044 JLINK_WriteReg(PSP, 0x20001000)  returns 0x00 (0000ms, 0795ms total)
T1648 001:044 JLINK_WriteReg(CFBP, 0x00000000)  returns 0x00 (0000ms, 0795ms total)
T1648 001:044 JLINK_SetBPEx(Addr = 0x20000000, Type = 0xFFFFFFF2) -- CPU_ReadMem(2 bytes @ 0x20000000)  returns 0x00000004 (0001ms, 0796ms total)
T1648 001:045 JLINK_Go() -- CPU_WriteMem(2 bytes @ 0x20000000) -- CPU_ReadMem(4 bytes @ 0xE0001000) (0004ms, 0800ms total)
T1648 001:049 JLINK_IsHalted() -- CPU_ReadMem(2 bytes @ 0x20000000)  returns TRUE (0005ms, 0805ms total)
T1648 001:054 JLINK_ReadReg(R15 (PC))  returns 0x20000000 (0000ms, 0800ms total)
T1648 001:054 JLINK_ClrBPEx(BPHandle = 0x00000004)  returns 0x00 (0000ms, 0800ms total)
T1648 001:054 JLINK_ReadReg(R0)  returns 0x00000000 (0000ms, 0800ms total)
T1648 001:055 JLINK_WriteMem(0x20000164, 0x0400 Bytes, ...) - Data: 30 DB 00 20 F1 0A 01 08 5D 1E 00 08 C9 57 01 08 ... -- CPU_WriteMem(1024 bytes @ 0x20000164)  returns 0x400 (0012ms, 0812ms total)
T1648 001:067 JLINK_WriteReg(R0, 0x08000000)  returns 0x00 (0000ms, 0812ms total)
T1648 001:067 JLINK_WriteReg(R1, 0x00000400)  returns 0x00 (0000ms, 0812ms total)
T1648 001:067 JLINK_WriteReg(R2, 0x20000164)  returns 0x00 (0000ms, 0812ms total)
T1648 001:067 JLINK_WriteReg(R3, 0x00000000)  returns 0x00 (0000ms, 0812ms total)
T1648 001:067 JLINK_WriteReg(R4, 0x00000000)  returns 0x00 (0000ms, 0812ms total)
T1648 001:067 JLINK_WriteReg(R5, 0x00000000)  returns 0x00 (0000ms, 0812ms total)
T1648 001:067 JLINK_WriteReg(R6, 0x00000000)  returns 0x00 (0000ms, 0812ms total)
T1648 001:067 JLINK_WriteReg(R7, 0x00000000)  returns 0x00 (0000ms, 0812ms total)
T1648 001:067 JLINK_WriteReg(R8, 0x00000000)  returns 0x00 (0000ms, 0812ms total)
T1648 001:067 JLINK_WriteReg(R9, 0x20000160)  returns 0x00 (0000ms, 0812ms total)
T1648 001:067 JLINK_WriteReg(R10, 0x00000000)  returns 0x00 (0000ms, 0812ms total)
T1648 001:067 JLINK_WriteReg(R11, 0x00000000)  returns 0x00 (0000ms, 0812ms total)
T1648 001:067 JLINK_WriteReg(R12, 0x00000000)  returns 0x00 (0000ms, 0812ms total)
T1648 001:067 JLINK_WriteReg(R13 (SP), 0x20001000)  returns 0x00 (0001ms, 0813ms total)
T1648 001:068 JLINK_WriteReg(R14, 0x20000001)  returns 0x00 (0000ms, 0813ms total)
T1648 001:068 JLINK_WriteReg(R15 (PC), 0x200000F4)  returns 0x00 (0000ms, 0813ms total)
T1648 001:068 JLINK_WriteReg(XPSR, 0x01000000)  returns 0x00 (0000ms, 0813ms total)
T1648 001:068 JLINK_WriteReg(MSP, 0x20001000)  returns 0x00 (0000ms, 0813ms total)
T1648 001:068 JLINK_WriteReg(PSP, 0x20001000)  returns 0x00 (0000ms, 0813ms total)
T1648 001:068 JLINK_WriteReg(CFBP, 0x00000000)  returns 0x00 (0000ms, 0813ms total)
T1648 001:068 JLINK_SetBPEx(Addr = 0x20000000, Type = 0xFFFFFFF2)  returns 0x00000005 (0000ms, 0813ms total)
T1648 001:068 JLINK_Go() -- CPU_ReadMem(4 bytes @ 0xE0001000) (0004ms, 0817ms total)
T1648 001:072 JLINK_IsHalted()  returns FALSE (0001ms, 0818ms total)
T1648 001:097 JLINK_IsHalted()  returns FALSE (0001ms, 0818ms total)
T1648 001:099 JLINK_IsHalted()  returns FALSE (0001ms, 0818ms total)
T1648 001:101 JLINK_IsHalted()  returns FALSE (0001ms, 0818ms total)
T1648 001:123 JLINK_IsHalted() -- CPU_ReadMem(2 bytes @ 0x20000000)  returns TRUE (0004ms, 0821ms total)
T1648 001:127 JLINK_ReadReg(R15 (PC))  returns 0x20000000 (0000ms, 0817ms total)
T1648 001:127 JLINK_ClrBPEx(BPHandle = 0x00000005)  returns 0x00 (0000ms, 0817ms total)
T1648 001:127 JLINK_ReadReg(R0)  returns 0x00000000 (0000ms, 0817ms total)
T1648 001:128 JLINK_WriteMem(0x20000164, 0x0400 Bytes, ...) - Data: FF 30 C8 E7 28 46 16 F0 D8 FB 29 21 20 46 01 F0 ... -- CPU_WriteMem(1024 bytes @ 0x20000164)  returns 0x400 (0012ms, 0829ms total)
T1648 001:140 JLINK_WriteReg(R0, 0x08000400)  returns 0x00 (0000ms, 0829ms total)
T1648 001:140 JLINK_WriteReg(R1, 0x00000400)  returns 0x00 (0000ms, 0829ms total)
T1648 001:140 JLINK_WriteReg(R2, 0x20000164)  returns 0x00 (0000ms, 0829ms total)
T1648 001:140 JLINK_WriteReg(R3, 0x00000000)  returns 0x00 (0000ms, 0829ms total)
T1648 001:140 JLINK_WriteReg(R4, 0x00000000)  returns 0x00 (0000ms, 0829ms total)
T1648 001:140 JLINK_WriteReg(R5, 0x00000000)  returns 0x00 (0000ms, 0829ms total)
T1648 001:140 JLINK_WriteReg(R6, 0x00000000)  returns 0x00 (0000ms, 0829ms total)
T1648 001:140 JLINK_WriteReg(R7, 0x00000000)  returns 0x00 (0000ms, 0829ms total)
T1648 001:140 JLINK_WriteReg(R8, 0x00000000)  returns 0x00 (0000ms, 0829ms total)
T1648 001:140 JLINK_WriteReg(R9, 0x20000160)  returns 0x00 (0000ms, 0829ms total)
T1648 001:140 JLINK_WriteReg(R10, 0x00000000)  returns 0x00 (0000ms, 0829ms total)
T1648 001:140 JLINK_WriteReg(R11, 0x00000000)  returns 0x00 (0000ms, 0829ms total)
T1648 001:140 JLINK_WriteReg(R12, 0x00000000)  returns 0x00 (0000ms, 0829ms total)
T1648 001:140 JLINK_WriteReg(R13 (SP), 0x20001000)  returns 0x00 (0000ms, 0829ms total)
T1648 001:140 JLINK_WriteReg(R14, 0x20000001)  returns 0x00 (0000ms, 0829ms total)
T1648 001:140 JLINK_WriteReg(R15 (PC), 0x200000F4)  returns 0x00 (0000ms, 0829ms total)
T1648 001:140 JLINK_WriteReg(XPSR, 0x01000000)  returns 0x00 (0000ms, 0829ms total)
T1648 001:140 JLINK_WriteReg(MSP, 0x20001000)  returns 0x00 (0000ms, 0829ms total)
T1648 001:140 JLINK_WriteReg(PSP, 0x20001000)  returns 0x00 (0000ms, 0829ms total)
T1648 001:140 JLINK_WriteReg(CFBP, 0x00000000)  returns 0x00 (0000ms, 0829ms total)
T1648 001:140 JLINK_SetBPEx(Addr = 0x20000000, Type = 0xFFFFFFF2)  returns 0x00000006 (0000ms, 0829ms total)
T1648 001:140 JLINK_Go() -- CPU_ReadMem(4 bytes @ 0xE0001000) (0004ms, 0833ms total)
T1648 001:144 JLINK_IsHalted()  returns FALSE (0001ms, 0834ms total)
T1648 001:147 JLINK_IsHalted()  returns FALSE (0001ms, 0834ms total)
T1648 001:149 JLINK_IsHalted()  returns FALSE (0001ms, 0834ms total)
T1648 001:151 JLINK_IsHalted()  returns FALSE (0001ms, 0834ms total)
T1648 001:153 JLINK_IsHalted()  returns FALSE (0001ms, 0834ms total)
T1648 001:155 JLINK_IsHalted()  returns FALSE (0001ms, 0834ms total)
T1648 001:157 JLINK_IsHalted()  returns FALSE (0001ms, 0834ms total)
T1648 001:159 JLINK_IsHalted()  returns FALSE (0001ms, 0834ms total)
T1648 001:161 JLINK_IsHalted()  returns FALSE (0001ms, 0834ms total)
T1648 001:163 JLINK_IsHalted()  returns FALSE (0001ms, 0834ms total)
T1648 001:165 JLINK_IsHalted()  returns FALSE (0001ms, 0834ms total)
T1648 001:167 JLINK_IsHalted()  returns FALSE (0001ms, 0834ms total)
T1648 001:169 JLINK_IsHalted()  returns FALSE (0001ms, 0834ms total)
T1648 001:171 JLINK_IsHalted()  returns FALSE (0001ms, 0834ms total)
T1648 001:173 JLINK_IsHalted()  returns FALSE (0001ms, 0834ms total)
T1648 001:175 JLINK_IsHalted() -- CPU_ReadMem(2 bytes @ 0x20000000)  returns TRUE (0004ms, 0837ms total)
T1648 001:179 JLINK_ReadReg(R15 (PC))  returns 0x20000000 (0000ms, 0833ms total)
T1648 001:179 JLINK_ClrBPEx(BPHandle = 0x00000006)  returns 0x00 (0000ms, 0833ms total)
T1648 001:179 JLINK_ReadReg(R0)  returns 0x00000000 (0000ms, 0833ms total)
T1648 001:180 JLINK_WriteMem(0x20000164, 0x0400 Bytes, ...) - Data: 05 D1 21 78 62 1C 4F A0 12 F0 B5 FF 32 E0 21 78 ... -- CPU_WriteMem(1024 bytes @ 0x20000164)  returns 0x400 (0012ms, 0845ms total)
T1648 001:192 JLINK_WriteReg(R0, 0x08000800)  returns 0x00 (0000ms, 0845ms total)
T1648 001:192 JLINK_WriteReg(R1, 0x00000400)  returns 0x00 (0000ms, 0845ms total)
T1648 001:192 JLINK_WriteReg(R2, 0x20000164)  returns 0x00 (0000ms, 0845ms total)
T1648 001:192 JLINK_WriteReg(R3, 0x00000000)  returns 0x00 (0000ms, 0845ms total)
T1648 001:192 JLINK_WriteReg(R4, 0x00000000)  returns 0x00 (0000ms, 0845ms total)
T1648 001:192 JLINK_WriteReg(R5, 0x00000000)  returns 0x00 (0000ms, 0845ms total)
T1648 001:192 JLINK_WriteReg(R6, 0x00000000)  returns 0x00 (0000ms, 0845ms total)
T1648 001:192 JLINK_WriteReg(R7, 0x00000000)  returns 0x00 (0000ms, 0845ms total)
T1648 001:192 JLINK_WriteReg(R8, 0x00000000)  returns 0x00 (0000ms, 0845ms total)
T1648 001:192 JLINK_WriteReg(R9, 0x20000160)  returns 0x00 (0000ms, 0845ms total)
T1648 001:192 JLINK_WriteReg(R10, 0x00000000)  returns 0x00 (0000ms, 0845ms total)
T1648 001:192 JLINK_WriteReg(R11, 0x00000000)  returns 0x00 (0001ms, 0846ms total)
T1648 001:193 JLINK_WriteReg(R12, 0x00000000)  returns 0x00 (0000ms, 0846ms total)
T1648 001:193 JLINK_WriteReg(R13 (SP), 0x20001000)  returns 0x00 (0000ms, 0846ms total)
T1648 001:193 JLINK_WriteReg(R14, 0x20000001)  returns 0x00 (0000ms, 0846ms total)
T1648 001:193 JLINK_WriteReg(R15 (PC), 0x200000F4)  returns 0x00 (0000ms, 0846ms total)
T1648 001:193 JLINK_WriteReg(XPSR, 0x01000000)  returns 0x00 (0000ms, 0846ms total)
T1648 001:193 JLINK_WriteReg(MSP, 0x20001000)  returns 0x00 (0000ms, 0846ms total)
T1648 001:193 JLINK_WriteReg(PSP, 0x20001000)  returns 0x00 (0000ms, 0846ms total)
T1648 001:193 JLINK_WriteReg(CFBP, 0x00000000)  returns 0x00 (0000ms, 0846ms total)
T1648 001:193 JLINK_SetBPEx(Addr = 0x20000000, Type = 0xFFFFFFF2)  returns 0x00000007 (0000ms, 0846ms total)
T1648 001:193 JLINK_Go() -- CPU_ReadMem(4 bytes @ 0xE0001000) (0004ms, 0850ms total)
T1648 001:197 JLINK_IsHalted()  returns FALSE (0001ms, 0851ms total)
T1648 001:201 JLINK_IsHalted()  returns FALSE (0001ms, 0851ms total)
T1648 001:203 JLINK_IsHalted()  returns FALSE (0001ms, 0851ms total)
T1648 001:205 JLINK_IsHalted()  returns FALSE (0001ms, 0851ms total)
T1648 001:207 JLINK_IsHalted()  returns FALSE (0001ms, 0851ms total)
T1648 001:209 JLINK_IsHalted()  returns FALSE (0001ms, 0851ms total)
T1648 001:211 JLINK_IsHalted()  returns FALSE (0001ms, 0851ms total)
T1648 001:232 JLINK_IsHalted() -- CPU_ReadMem(2 bytes @ 0x20000000)  returns TRUE (0004ms, 0854ms total)
T1648 001:236 JLINK_ReadReg(R15 (PC))  returns 0x20000000 (0000ms, 0850ms total)
T1648 001:236 JLINK_ClrBPEx(BPHandle = 0x00000007)  returns 0x00 (0000ms, 0850ms total)
T1648 001:236 JLINK_ReadReg(R0)  returns 0x00000000 (0000ms, 0850ms total)
T1648 001:237 JLINK_WriteMem(0x20000164, 0x0400 Bytes, ...) - Data: 4C 61 79 65 72 20 31 00 E0 04 00 20 64 65 76 69 ... -- CPU_WriteMem(1024 bytes @ 0x20000164)  returns 0x400 (0012ms, 0862ms total)
T1648 001:249 JLINK_WriteReg(R0, 0x08000C00)  returns 0x00 (0000ms, 0862ms total)
T1648 001:249 JLINK_WriteReg(R1, 0x00000400)  returns 0x00 (0000ms, 0862ms total)
T1648 001:249 JLINK_WriteReg(R2, 0x20000164)  returns 0x00 (0000ms, 0862ms total)
T1648 001:249 JLINK_WriteReg(R3, 0x00000000)  returns 0x00 (0000ms, 0862ms total)
T1648 001:249 JLINK_WriteReg(R4, 0x00000000)  returns 0x00 (0000ms, 0862ms total)
T1648 001:249 JLINK_WriteReg(R5, 0x00000000)  returns 0x00 (0000ms, 0862ms total)
T1648 001:249 JLINK_WriteReg(R6, 0x00000000)  returns 0x00 (0000ms, 0862ms total)
T1648 001:249 JLINK_WriteReg(R7, 0x00000000)  returns 0x00 (0000ms, 0862ms total)
T1648 001:249 JLINK_WriteReg(R8, 0x00000000)  returns 0x00 (0000ms, 0862ms total)
T1648 001:249 JLINK_WriteReg(R9, 0x20000160)  returns 0x00 (0000ms, 0862ms total)
T1648 001:249 JLINK_WriteReg(R10, 0x00000000)  returns 0x00 (0000ms, 0862ms total)
T1648 001:249 JLINK_WriteReg(R11, 0x00000000)  returns 0x00 (0000ms, 0862ms total)
T1648 001:249 JLINK_WriteReg(R12, 0x00000000)  returns 0x00 (0000ms, 0862ms total)
T1648 001:249 JLINK_WriteReg(R13 (SP), 0x20001000)  returns 0x00 (0001ms, 0863ms total)
T1648 001:250 JLINK_WriteReg(R14, 0x20000001)  returns 0x00 (0000ms, 0863ms total)
T1648 001:250 JLINK_WriteReg(R15 (PC), 0x200000F4)  returns 0x00 (0000ms, 0863ms total)
T1648 001:250 JLINK_WriteReg(XPSR, 0x01000000)  returns 0x00 (0000ms, 0863ms total)
T1648 001:250 JLINK_WriteReg(MSP, 0x20001000)  returns 0x00 (0000ms, 0863ms total)
T1648 001:250 JLINK_WriteReg(PSP, 0x20001000)  returns 0x00 (0000ms, 0863ms total)
T1648 001:250 JLINK_WriteReg(CFBP, 0x00000000)  returns 0x00 (0000ms, 0863ms total)
T1648 001:250 JLINK_SetBPEx(Addr = 0x20000000, Type = 0xFFFFFFF2)  returns 0x00000008 (0000ms, 0863ms total)
T1648 001:250 JLINK_Go() -- CPU_ReadMem(4 bytes @ 0xE0001000) (0004ms, 0867ms total)
T1648 001:254 JLINK_IsHalted()  returns FALSE (0003ms, 0870ms total)
T1648 001:259 JLINK_IsHalted()  returns FALSE (0001ms, 0868ms total)
T1648 001:261 JLINK_IsHalted()  returns FALSE (0001ms, 0868ms total)
T1648 001:263 JLINK_IsHalted()  returns FALSE (0001ms, 0868ms total)
T1648 001:265 JLINK_IsHalted()  returns FALSE (0001ms, 0868ms total)
T1648 001:267 JLINK_IsHalted()  returns FALSE (0001ms, 0868ms total)
T1648 001:269 JLINK_IsHalted()  returns FALSE (0001ms, 0868ms total)
T1648 001:271 JLINK_IsHalted()  returns FALSE (0001ms, 0868ms total)
T1648 001:273 JLINK_IsHalted()  returns FALSE (0001ms, 0868ms total)
T1648 001:276 JLINK_IsHalted()  returns FALSE (0001ms, 0868ms total)
T1648 001:278 JLINK_IsHalted()  returns FALSE (0001ms, 0868ms total)
T1648 001:280 JLINK_IsHalted()  returns FALSE (0001ms, 0868ms total)
T1648 001:282 JLINK_IsHalted()  returns FALSE (0001ms, 0868ms total)
T1648 001:284 JLINK_IsHalted()  returns FALSE (0001ms, 0868ms total)
T1648 001:286 JLINK_IsHalted() -- CPU_ReadMem(2 bytes @ 0x20000000)  returns TRUE (0004ms, 0871ms total)
T1648 001:290 JLINK_ReadReg(R15 (PC))  returns 0x20000000 (0000ms, 0867ms total)
T1648 001:290 JLINK_ClrBPEx(BPHandle = 0x00000008)  returns 0x00 (0000ms, 0867ms total)
T1648 001:290 JLINK_ReadReg(R0)  returns 0x00000000 (0000ms, 0867ms total)
T1648 001:291 JLINK_WriteMem(0x20000164, 0x0400 Bytes, ...) - Data: BB E7 30 46 15 F0 D9 FD 19 E0 40 F2 1A 42 21 46 ... -- CPU_WriteMem(1024 bytes @ 0x20000164)  returns 0x400 (0012ms, 0879ms total)
T1648 001:303 JLINK_WriteReg(R0, 0x08001000)  returns 0x00 (0000ms, 0879ms total)
T1648 001:303 JLINK_WriteReg(R1, 0x00000400)  returns 0x00 (0000ms, 0879ms total)
T1648 001:303 JLINK_WriteReg(R2, 0x20000164)  returns 0x00 (0000ms, 0879ms total)
T1648 001:303 JLINK_WriteReg(R3, 0x00000000)  returns 0x00 (0000ms, 0879ms total)
T1648 001:303 JLINK_WriteReg(R4, 0x00000000)  returns 0x00 (0000ms, 0879ms total)
T1648 001:303 JLINK_WriteReg(R5, 0x00000000)  returns 0x00 (0000ms, 0879ms total)
T1648 001:303 JLINK_WriteReg(R6, 0x00000000)  returns 0x00 (0000ms, 0879ms total)
T1648 001:303 JLINK_WriteReg(R7, 0x00000000)  returns 0x00 (0000ms, 0879ms total)
T1648 001:303 JLINK_WriteReg(R8, 0x00000000)  returns 0x00 (0000ms, 0879ms total)
T1648 001:303 JLINK_WriteReg(R9, 0x20000160)  returns 0x00 (0000ms, 0879ms total)
T1648 001:303 JLINK_WriteReg(R10, 0x00000000)  returns 0x00 (0000ms, 0879ms total)
T1648 001:303 JLINK_WriteReg(R11, 0x00000000)  returns 0x00 (0000ms, 0879ms total)
T1648 001:303 JLINK_WriteReg(R12, 0x00000000)  returns 0x00 (0000ms, 0879ms total)
T1648 001:303 JLINK_WriteReg(R13 (SP), 0x20001000)  returns 0x00 (0000ms, 0879ms total)
T1648 001:303 JLINK_WriteReg(R14, 0x20000001)  returns 0x00 (0000ms, 0879ms total)
T1648 001:303 JLINK_WriteReg(R15 (PC), 0x200000F4)  returns 0x00 (0001ms, 0880ms total)
T1648 001:304 JLINK_WriteReg(XPSR, 0x01000000)  returns 0x00 (0000ms, 0880ms total)
T1648 001:304 JLINK_WriteReg(MSP, 0x20001000)  returns 0x00 (0000ms, 0880ms total)
T1648 001:304 JLINK_WriteReg(PSP, 0x20001000)  returns 0x00 (0000ms, 0880ms total)
T1648 001:304 JLINK_WriteReg(CFBP, 0x00000000)  returns 0x00 (0000ms, 0880ms total)
T1648 001:304 JLINK_SetBPEx(Addr = 0x20000000, Type = 0xFFFFFFF2)  returns 0x00000009 (0000ms, 0880ms total)
T1648 001:304 JLINK_Go() -- CPU_ReadMem(4 bytes @ 0xE0001000) (0004ms, 0884ms total)
T1648 001:308 JLINK_IsHalted()  returns FALSE (0001ms, 0885ms total)
T1648 001:310 JLINK_IsHalted()  returns FALSE (0000ms, 0884ms total)
T1648 001:311 JLINK_IsHalted()  returns FALSE (0000ms, 0884ms total)
T1648 001:312 JLINK_IsHalted()  returns FALSE (0000ms, 0884ms total)
T1648 001:313 JLINK_IsHalted()  returns FALSE (0000ms, 0884ms total)
T1648 001:314 JLINK_IsHalted()  returns FALSE (0000ms, 0884ms total)
T1648 001:315 JLINK_IsHalted()  returns FALSE (0000ms, 0884ms total)
T1648 001:316 JLINK_IsHalted()  returns FALSE (0000ms, 0884ms total)
T1648 001:317 JLINK_IsHalted()  returns FALSE (0000ms, 0884ms total)
T1648 001:318 JLINK_IsHalted()  returns FALSE (0000ms, 0884ms total)
T1648 001:319 JLINK_IsHalted()  returns FALSE (0000ms, 0884ms total)
T1648 001:320 JLINK_IsHalted()  returns FALSE (0000ms, 0884ms total)
T1648 001:321 JLINK_IsHalted()  returns FALSE (0000ms, 0884ms total)
T1648 001:322 JLINK_IsHalted()  returns FALSE (0000ms, 0884ms total)
T1648 001:341 JLINK_IsHalted() -- CPU_ReadMem(2 bytes @ 0x20000000)  returns TRUE (0004ms, 0888ms total)
T1648 001:345 JLINK_ReadReg(R15 (PC))  returns 0x20000000 (0000ms, 0884ms total)
T1648 001:345 JLINK_ClrBPEx(BPHandle = 0x00000009)  returns 0x00 (0000ms, 0884ms total)
T1648 001:345 JLINK_ReadReg(R0)  returns 0x00000000 (0000ms, 0884ms total)
T1648 001:346 JLINK_WriteMem(0x20000164, 0x0400 Bytes, ...) - Data: 65 64 21 0D 0A 00 00 00 32 30 25 30 32 64 2D 25 ... -- CPU_WriteMem(1024 bytes @ 0x20000164)  returns 0x400 (0012ms, 0896ms total)
T1648 001:358 JLINK_WriteReg(R0, 0x08001400)  returns 0x00 (0000ms, 0896ms total)
T1648 001:358 JLINK_WriteReg(R1, 0x00000400)  returns 0x00 (0000ms, 0896ms total)
T1648 001:358 JLINK_WriteReg(R2, 0x20000164)  returns 0x00 (0000ms, 0896ms total)
T1648 001:358 JLINK_WriteReg(R3, 0x00000000)  returns 0x00 (0000ms, 0896ms total)
T1648 001:358 JLINK_WriteReg(R4, 0x00000000)  returns 0x00 (0000ms, 0896ms total)
T1648 001:358 JLINK_WriteReg(R5, 0x00000000)  returns 0x00 (0000ms, 0896ms total)
T1648 001:358 JLINK_WriteReg(R6, 0x00000000)  returns 0x00 (0000ms, 0896ms total)
T1648 001:358 JLINK_WriteReg(R7, 0x00000000)  returns 0x00 (0000ms, 0896ms total)
T1648 001:358 JLINK_WriteReg(R8, 0x00000000)  returns 0x00 (0000ms, 0896ms total)
T1648 001:358 JLINK_WriteReg(R9, 0x20000160)  returns 0x00 (0000ms, 0896ms total)
T1648 001:358 JLINK_WriteReg(R10, 0x00000000)  returns 0x00 (0000ms, 0896ms total)
T1648 001:358 JLINK_WriteReg(R11, 0x00000000)  returns 0x00 (0000ms, 0896ms total)
T1648 001:358 JLINK_WriteReg(R12, 0x00000000)  returns 0x00 (0000ms, 0896ms total)
T1648 001:358 JLINK_WriteReg(R13 (SP), 0x20001000)  returns 0x00 (0001ms, 0897ms total)
T1648 001:359 JLINK_WriteReg(R14, 0x20000001)  returns 0x00 (0000ms, 0897ms total)
T1648 001:359 JLINK_WriteReg(R15 (PC), 0x200000F4)  returns 0x00 (0000ms, 0897ms total)
T1648 001:359 JLINK_WriteReg(XPSR, 0x01000000)  returns 0x00 (0000ms, 0897ms total)
T1648 001:359 JLINK_WriteReg(MSP, 0x20001000)  returns 0x00 (0000ms, 0897ms total)
T1648 001:359 JLINK_WriteReg(PSP, 0x20001000)  returns 0x00 (0000ms, 0897ms total)
T1648 001:359 JLINK_WriteReg(CFBP, 0x00000000)  returns 0x00 (0000ms, 0897ms total)
T1648 001:359 JLINK_SetBPEx(Addr = 0x20000000, Type = 0xFFFFFFF2)  returns 0x0000000A (0000ms, 0897ms total)
T1648 001:359 JLINK_Go() -- CPU_ReadMem(4 bytes @ 0xE0001000) (0004ms, 0901ms total)
T1648 001:363 JLINK_IsHalted()  returns FALSE (0001ms, 0902ms total)
T1648 001:367 JLINK_IsHalted()  returns FALSE (0001ms, 0902ms total)
T1648 001:369 JLINK_IsHalted()  returns FALSE (0001ms, 0902ms total)
T1648 001:371 JLINK_IsHalted()  returns FALSE (0001ms, 0902ms total)
T1648 001:373 JLINK_IsHalted()  returns FALSE (0001ms, 0902ms total)
T1648 001:375 JLINK_IsHalted()  returns FALSE (0001ms, 0902ms total)
T1648 001:377 JLINK_IsHalted()  returns FALSE (0001ms, 0902ms total)
T1648 001:379 JLINK_IsHalted()  returns FALSE (0001ms, 0902ms total)
T1648 001:381 JLINK_IsHalted()  returns FALSE (0001ms, 0902ms total)
T1648 001:383 JLINK_IsHalted()  returns FALSE (0001ms, 0902ms total)
T1648 001:385 JLINK_IsHalted()  returns FALSE (0001ms, 0902ms total)
T1648 001:387 JLINK_IsHalted()  returns FALSE (0001ms, 0902ms total)
T1648 001:389 JLINK_IsHalted()  returns FALSE (0001ms, 0902ms total)
T1648 001:392 JLINK_IsHalted()  returns FALSE (0001ms, 0902ms total)
T1648 001:394 JLINK_IsHalted() -- CPU_ReadMem(2 bytes @ 0x20000000)  returns TRUE (0004ms, 0905ms total)
T1648 001:398 JLINK_ReadReg(R15 (PC))  returns 0x20000000 (0000ms, 0901ms total)
T1648 001:398 JLINK_ClrBPEx(BPHandle = 0x0000000A)  returns 0x00 (0000ms, 0901ms total)
T1648 001:398 JLINK_ReadReg(R0)  returns 0x00000000 (0000ms, 0901ms total)
T1648 001:399 JLINK_WriteMem(0x20000164, 0x0400 Bytes, ...) - Data: 00 EB 57 77 FF 10 A0 EB C7 0C 01 27 07 FA 0C F7 ... -- CPU_WriteMem(1024 bytes @ 0x20000164)  returns 0x400 (0012ms, 0913ms total)
T1648 001:411 JLINK_WriteReg(R0, 0x08001800)  returns 0x00 (0000ms, 0913ms total)
T1648 001:411 JLINK_WriteReg(R1, 0x00000400)  returns 0x00 (0000ms, 0913ms total)
T1648 001:412 JLINK_WriteReg(R2, 0x20000164)  returns 0x00 (0000ms, 0913ms total)
T1648 001:412 JLINK_WriteReg(R3, 0x00000000)  returns 0x00 (0000ms, 0913ms total)
T1648 001:412 JLINK_WriteReg(R4, 0x00000000)  returns 0x00 (0000ms, 0913ms total)
T1648 001:412 JLINK_WriteReg(R5, 0x00000000)  returns 0x00 (0000ms, 0913ms total)
T1648 001:412 JLINK_WriteReg(R6, 0x00000000)  returns 0x00 (0000ms, 0913ms total)
T1648 001:412 JLINK_WriteReg(R7, 0x00000000)  returns 0x00 (0000ms, 0913ms total)
T1648 001:412 JLINK_WriteReg(R8, 0x00000000)  returns 0x00 (0000ms, 0913ms total)
T1648 001:412 JLINK_WriteReg(R9, 0x20000160)  returns 0x00 (0000ms, 0913ms total)
T1648 001:412 JLINK_WriteReg(R10, 0x00000000)  returns 0x00 (0000ms, 0913ms total)
T1648 001:412 JLINK_WriteReg(R11, 0x00000000)  returns 0x00 (0000ms, 0913ms total)
T1648 001:412 JLINK_WriteReg(R12, 0x00000000)  returns 0x00 (0000ms, 0913ms total)
T1648 001:412 JLINK_WriteReg(R13 (SP), 0x20001000)  returns 0x00 (0000ms, 0913ms total)
T1648 001:412 JLINK_WriteReg(R14, 0x20000001)  returns 0x00 (0000ms, 0913ms total)
T1648 001:412 JLINK_WriteReg(R15 (PC), 0x200000F4)  returns 0x00 (0000ms, 0913ms total)
T1648 001:412 JLINK_WriteReg(XPSR, 0x01000000)  returns 0x00 (0000ms, 0913ms total)
T1648 001:412 JLINK_WriteReg(MSP, 0x20001000)  returns 0x00 (0000ms, 0913ms total)
T1648 001:412 JLINK_WriteReg(PSP, 0x20001000)  returns 0x00 (0000ms, 0913ms total)
T1648 001:412 JLINK_WriteReg(CFBP, 0x00000000)  returns 0x00 (0000ms, 0913ms total)
T1648 001:412 JLINK_SetBPEx(Addr = 0x20000000, Type = 0xFFFFFFF2)  returns 0x0000000B (0000ms, 0913ms total)
T1648 001:412 JLINK_Go() -- CPU_ReadMem(4 bytes @ 0xE0001000) (0004ms, 0917ms total)
T1648 001:416 JLINK_IsHalted()  returns FALSE (0001ms, 0918ms total)
T1648 001:418 JLINK_IsHalted()  returns FALSE (0000ms, 0917ms total)
T1648 001:419 JLINK_IsHalted()  returns FALSE (0000ms, 0917ms total)
T1648 001:420 JLINK_IsHalted()  returns FALSE (0000ms, 0917ms total)
T1648 001:421 JLINK_IsHalted()  returns FALSE (0000ms, 0917ms total)
T1648 001:422 JLINK_IsHalted()  returns FALSE (0000ms, 0917ms total)
T1648 001:423 JLINK_IsHalted()  returns FALSE (0000ms, 0917ms total)
T1648 001:424 JLINK_IsHalted()  returns FALSE (0000ms, 0917ms total)
T1648 001:425 JLINK_IsHalted()  returns FALSE (0000ms, 0917ms total)
T1648 001:426 JLINK_IsHalted()  returns FALSE (0000ms, 0917ms total)
T1648 001:427 JLINK_IsHalted()  returns FALSE (0000ms, 0917ms total)
T1648 001:428 JLINK_IsHalted()  returns FALSE (0000ms, 0917ms total)
T1648 001:429 JLINK_IsHalted()  returns FALSE (0000ms, 0917ms total)
T1648 001:430 JLINK_IsHalted()  returns FALSE (0000ms, 0917ms total)
T1648 001:431 JLINK_IsHalted()  returns FALSE (0000ms, 0917ms total)
T1648 001:473 JLINK_IsHalted() -- CPU_ReadMem(2 bytes @ 0x20000000)  returns TRUE (0005ms, 0922ms total)
T1648 001:478 JLINK_ReadReg(R15 (PC))  returns 0x20000000 (0000ms, 0917ms total)
T1648 001:478 JLINK_ClrBPEx(BPHandle = 0x0000000B)  returns 0x00 (0000ms, 0917ms total)
T1648 001:478 JLINK_ReadReg(R0)  returns 0x00000000 (0000ms, 0917ms total)
T1648 001:479 JLINK_WriteMem(0x20000164, 0x0400 Bytes, ...) - Data: 0C 55 64 1C AC 42 FA D3 06 22 55 21 0E A8 11 F0 ... -- CPU_WriteMem(1024 bytes @ 0x20000164)  returns 0x400 (0012ms, 0929ms total)
T1648 001:491 JLINK_WriteReg(R0, 0x08001C00)  returns 0x00 (0000ms, 0929ms total)
T1648 001:491 JLINK_WriteReg(R1, 0x00000400)  returns 0x00 (0000ms, 0929ms total)
T1648 001:491 JLINK_WriteReg(R2, 0x20000164)  returns 0x00 (0000ms, 0929ms total)
T1648 001:491 JLINK_WriteReg(R3, 0x00000000)  returns 0x00 (0000ms, 0929ms total)
T1648 001:491 JLINK_WriteReg(R4, 0x00000000)  returns 0x00 (0000ms, 0929ms total)
T1648 001:491 JLINK_WriteReg(R5, 0x00000000)  returns 0x00 (0000ms, 0929ms total)
T1648 001:491 JLINK_WriteReg(R6, 0x00000000)  returns 0x00 (0000ms, 0929ms total)
T1648 001:491 JLINK_WriteReg(R7, 0x00000000)  returns 0x00 (0000ms, 0929ms total)
T1648 001:491 JLINK_WriteReg(R8, 0x00000000)  returns 0x00 (0000ms, 0929ms total)
T1648 001:491 JLINK_WriteReg(R9, 0x20000160)  returns 0x00 (0000ms, 0929ms total)
T1648 001:491 JLINK_WriteReg(R10, 0x00000000)  returns 0x00 (0000ms, 0929ms total)
T1648 001:491 JLINK_WriteReg(R11, 0x00000000)  returns 0x00 (0000ms, 0929ms total)
T1648 001:491 JLINK_WriteReg(R12, 0x00000000)  returns 0x00 (0000ms, 0929ms total)
T1648 001:491 JLINK_WriteReg(R13 (SP), 0x20001000)  returns 0x00 (0001ms, 0930ms total)
T1648 001:492 JLINK_WriteReg(R14, 0x20000001)  returns 0x00 (0000ms, 0930ms total)
T1648 001:492 JLINK_WriteReg(R15 (PC), 0x200000F4)  returns 0x00 (0000ms, 0930ms total)
T1648 001:492 JLINK_WriteReg(XPSR, 0x01000000)  returns 0x00 (0000ms, 0930ms total)
T1648 001:492 JLINK_WriteReg(MSP, 0x20001000)  returns 0x00 (0000ms, 0930ms total)
T1648 001:492 JLINK_WriteReg(PSP, 0x20001000)  returns 0x00 (0000ms, 0930ms total)
T1648 001:492 JLINK_WriteReg(CFBP, 0x00000000)  returns 0x00 (0000ms, 0930ms total)
T1648 001:492 JLINK_SetBPEx(Addr = 0x20000000, Type = 0xFFFFFFF2)  returns 0x0000000C (0000ms, 0930ms total)
T1648 001:492 JLINK_Go() -- CPU_ReadMem(4 bytes @ 0xE0001000) (0004ms, 0934ms total)
T1648 001:496 JLINK_IsHalted()  returns FALSE (0001ms, 0935ms total)
T1648 001:498 JLINK_IsHalted()  returns FALSE (0001ms, 0935ms total)
T1648 001:500 JLINK_IsHalted()  returns FALSE (0001ms, 0935ms total)
T1648 001:502 JLINK_IsHalted()  returns FALSE (0001ms, 0935ms total)
T1648 001:504 JLINK_IsHalted()  returns FALSE (0001ms, 0935ms total)
T1648 001:506 JLINK_IsHalted()  returns FALSE (0000ms, 0934ms total)
T1648 001:507 JLINK_IsHalted()  returns FALSE (0000ms, 0934ms total)
T1648 001:511 JLINK_IsHalted()  returns FALSE (0001ms, 0935ms total)
T1648 001:513 JLINK_IsHalted()  returns FALSE (0001ms, 0935ms total)
T1648 001:515 JLINK_IsHalted()  returns FALSE (0001ms, 0935ms total)
T1648 001:517 JLINK_IsHalted()  returns FALSE (0001ms, 0935ms total)
T1648 001:519 JLINK_IsHalted()  returns FALSE (0001ms, 0935ms total)
T1648 001:521 JLINK_IsHalted()  returns FALSE (0001ms, 0935ms total)
T1648 001:523 JLINK_IsHalted()  returns FALSE (0001ms, 0935ms total)
T1648 001:525 JLINK_IsHalted()  returns FALSE (0001ms, 0935ms total)
T1648 001:527 JLINK_IsHalted() -- CPU_ReadMem(2 bytes @ 0x20000000)  returns TRUE (0005ms, 0939ms total)
T1648 001:532 JLINK_ReadReg(R15 (PC))  returns 0x20000000 (0000ms, 0934ms total)
T1648 001:532 JLINK_ClrBPEx(BPHandle = 0x0000000C)  returns 0x00 (0000ms, 0934ms total)
T1648 001:532 JLINK_ReadReg(R0)  returns 0x00000000 (0000ms, 0934ms total)
T1648 001:532 JLINK_WriteMem(0x20000164, 0x0400 Bytes, ...) - Data: 01 21 30 68 0D F0 9B FA 00 20 04 B0 70 BD 70 B5 ... -- CPU_WriteMem(1024 bytes @ 0x20000164)  returns 0x400 (0013ms, 0947ms total)
T1648 001:545 JLINK_WriteReg(R0, 0x08002000)  returns 0x00 (0000ms, 0947ms total)
T1648 001:545 JLINK_WriteReg(R1, 0x00000400)  returns 0x00 (0000ms, 0947ms total)
T1648 001:545 JLINK_WriteReg(R2, 0x20000164)  returns 0x00 (0000ms, 0947ms total)
T1648 001:545 JLINK_WriteReg(R3, 0x00000000)  returns 0x00 (0000ms, 0947ms total)
T1648 001:545 JLINK_WriteReg(R4, 0x00000000)  returns 0x00 (0000ms, 0947ms total)
T1648 001:545 JLINK_WriteReg(R5, 0x00000000)  returns 0x00 (0000ms, 0947ms total)
T1648 001:545 JLINK_WriteReg(R6, 0x00000000)  returns 0x00 (0000ms, 0947ms total)
T1648 001:545 JLINK_WriteReg(R7, 0x00000000)  returns 0x00 (0000ms, 0947ms total)
T1648 001:545 JLINK_WriteReg(R8, 0x00000000)  returns 0x00 (0000ms, 0947ms total)
T1648 001:545 JLINK_WriteReg(R9, 0x20000160)  returns 0x00 (0000ms, 0947ms total)
T1648 001:545 JLINK_WriteReg(R10, 0x00000000)  returns 0x00 (0000ms, 0947ms total)
T1648 001:545 JLINK_WriteReg(R11, 0x00000000)  returns 0x00 (0000ms, 0947ms total)
T1648 001:545 JLINK_WriteReg(R12, 0x00000000)  returns 0x00 (0000ms, 0947ms total)
T1648 001:545 JLINK_WriteReg(R13 (SP), 0x20001000)  returns 0x00 (0000ms, 0947ms total)
T1648 001:545 JLINK_WriteReg(R14, 0x20000001)  returns 0x00 (0000ms, 0947ms total)
T1648 001:545 JLINK_WriteReg(R15 (PC), 0x200000F4)  returns 0x00 (0000ms, 0947ms total)
T1648 001:545 JLINK_WriteReg(XPSR, 0x01000000)  returns 0x00 (0000ms, 0947ms total)
T1648 001:545 JLINK_WriteReg(MSP, 0x20001000)  returns 0x00 (0000ms, 0947ms total)
T1648 001:545 JLINK_WriteReg(PSP, 0x20001000)  returns 0x00 (0000ms, 0947ms total)
T1648 001:545 JLINK_WriteReg(CFBP, 0x00000000)  returns 0x00 (0000ms, 0947ms total)
T1648 001:545 JLINK_SetBPEx(Addr = 0x20000000, Type = 0xFFFFFFF2)  returns 0x0000000D (0000ms, 0947ms total)
T1648 001:545 JLINK_Go() -- CPU_ReadMem(4 bytes @ 0xE0001000) (0004ms, 0951ms total)
T1648 001:549 JLINK_IsHalted()  returns FALSE (0001ms, 0952ms total)
T1648 001:596 JLINK_IsHalted() -- CPU_ReadMem(2 bytes @ 0x20000000)  returns TRUE (0005ms, 0956ms total)
T1648 001:601 JLINK_ReadReg(R15 (PC))  returns 0x20000000 (0000ms, 0951ms total)
T1648 001:601 JLINK_ClrBPEx(BPHandle = 0x0000000D)  returns 0x00 (0000ms, 0951ms total)
T1648 001:601 JLINK_ReadReg(R0)  returns 0x00000000 (0000ms, 0951ms total)
T1648 001:602 JLINK_WriteMem(0x20000164, 0x0400 Bytes, ...) - Data: 40 02 AD F8 00 00 69 46 36 48 0C F0 37 FA 18 20 ... -- CPU_WriteMem(1024 bytes @ 0x20000164)  returns 0x400 (0012ms, 0963ms total)
T1648 001:614 JLINK_WriteReg(R0, 0x08002400)  returns 0x00 (0000ms, 0963ms total)
T1648 001:614 JLINK_WriteReg(R1, 0x00000400)  returns 0x00 (0000ms, 0963ms total)
T1648 001:614 JLINK_WriteReg(R2, 0x20000164)  returns 0x00 (0000ms, 0963ms total)
T1648 001:614 JLINK_WriteReg(R3, 0x00000000)  returns 0x00 (0000ms, 0963ms total)
T1648 001:614 JLINK_WriteReg(R4, 0x00000000)  returns 0x00 (0000ms, 0963ms total)
T1648 001:614 JLINK_WriteReg(R5, 0x00000000)  returns 0x00 (0000ms, 0963ms total)
T1648 001:614 JLINK_WriteReg(R6, 0x00000000)  returns 0x00 (0000ms, 0963ms total)
T1648 001:614 JLINK_WriteReg(R7, 0x00000000)  returns 0x00 (0001ms, 0964ms total)
T1648 001:615 JLINK_WriteReg(R8, 0x00000000)  returns 0x00 (0000ms, 0964ms total)
T1648 001:615 JLINK_WriteReg(R9, 0x20000160)  returns 0x00 (0000ms, 0964ms total)
T1648 001:615 JLINK_WriteReg(R10, 0x00000000)  returns 0x00 (0000ms, 0964ms total)
T1648 001:615 JLINK_WriteReg(R11, 0x00000000)  returns 0x00 (0000ms, 0964ms total)
T1648 001:615 JLINK_WriteReg(R12, 0x00000000)  returns 0x00 (0000ms, 0964ms total)
T1648 001:615 JLINK_WriteReg(R13 (SP), 0x20001000)  returns 0x00 (0000ms, 0964ms total)
T1648 001:615 JLINK_WriteReg(R14, 0x20000001)  returns 0x00 (0000ms, 0964ms total)
T1648 001:615 JLINK_WriteReg(R15 (PC), 0x200000F4)  returns 0x00 (0000ms, 0964ms total)
T1648 001:615 JLINK_WriteReg(XPSR, 0x01000000)  returns 0x00 (0000ms, 0964ms total)
T1648 001:615 JLINK_WriteReg(MSP, 0x20001000)  returns 0x00 (0000ms, 0964ms total)
T1648 001:615 JLINK_WriteReg(PSP, 0x20001000)  returns 0x00 (0000ms, 0964ms total)
T1648 001:615 JLINK_WriteReg(CFBP, 0x00000000)  returns 0x00 (0000ms, 0964ms total)
T1648 001:615 JLINK_SetBPEx(Addr = 0x20000000, Type = 0xFFFFFFF2)  returns 0x0000000E (0000ms, 0964ms total)
T1648 001:615 JLINK_Go() -- CPU_ReadMem(4 bytes @ 0xE0001000) (0004ms, 0968ms total)
T1648 001:619 JLINK_IsHalted()  returns FALSE (0001ms, 0969ms total)
T1648 001:623 JLINK_IsHalted()  returns FALSE (0001ms, 0969ms total)
T1648 001:625 JLINK_IsHalted()  returns FALSE (0001ms, 0969ms total)
T1648 001:627 JLINK_IsHalted()  returns FALSE (0001ms, 0969ms total)
T1648 001:629 JLINK_IsHalted()  returns FALSE (0001ms, 0969ms total)
T1648 001:631 JLINK_IsHalted()  returns FALSE (0001ms, 0969ms total)
T1648 001:633 JLINK_IsHalted()  returns FALSE (0001ms, 0969ms total)
T1648 001:635 JLINK_IsHalted()  returns FALSE (0001ms, 0969ms total)
T1648 001:637 JLINK_IsHalted()  returns FALSE (0001ms, 0969ms total)
T1648 001:639 JLINK_IsHalted()  returns FALSE (0001ms, 0969ms total)
T1648 001:641 JLINK_IsHalted()  returns FALSE (0001ms, 0969ms total)
T1648 001:643 JLINK_IsHalted()  returns FALSE (0001ms, 0969ms total)
T1648 001:645 JLINK_IsHalted()  returns FALSE (0001ms, 0969ms total)
T1648 001:647 JLINK_IsHalted()  returns FALSE (0001ms, 0969ms total)
T1648 001:649 JLINK_IsHalted()  returns FALSE (0001ms, 0969ms total)
T1648 001:678 JLINK_IsHalted() -- CPU_ReadMem(2 bytes @ 0x20000000)  returns TRUE (0005ms, 0973ms total)
T1648 001:683 JLINK_ReadReg(R15 (PC))  returns 0x20000000 (0000ms, 0968ms total)
T1648 001:683 JLINK_ClrBPEx(BPHandle = 0x0000000E)  returns 0x00 (0000ms, 0968ms total)
T1648 001:683 JLINK_ReadReg(R0)  returns 0x00000000 (0000ms, 0968ms total)
